Freq.	V(n001)
0.00000000000000e+00	9.33741545330214e-06,0.00000000000000e+00
1.00000000000000e+01	1.32063942108141e-05,-6.87916189040627e-08
2.00000000000000e+01	1.32039425891288e-05,-1.31918650785414e-07
3.00000000000000e+01	1.32050424977070e-05,-1.99606582281853e-07
4.00000000000000e+01	1.32106741590850e-05,-2.64756228396662e-07
5.00000000000000e+01	1.32069533687949e-05,-3.34629050564799e-07
6.00000000000000e+01	1.32076711528748e-05,-4.03530940375109e-07
7.00000000000000e+01	1.32124185037386e-05,-4.65244779608562e-07
8.00000000000000e+01	1.32125243592519e-05,-5.37048332021760e-07
9.00000000000000e+01	1.32136000642163e-05,-6.08257849153834e-07
1.00000000000000e+02	1.32171131658160e-05,-6.74267186118940e-07
1.10000000000000e+02	1.32191642760375e-05,-7.45378799860564e-07
1.20000000000000e+02	1.32204701840948e-05,-8.16510607240531e-07
1.30000000000000e+02	1.32244183221433e-05,-8.89085178730404e-07
1.40000000000000e+02	1.32284031130241e-05,-9.62802725452345e-07
1.50000000000000e+02	1.32228580833827e-05,-1.03554631173592e-06
1.60000000000000e+02	1.32290184091505e-05,-1.11305420957633e-06
1.70000000000000e+02	1.32323267949464e-05,-1.19588331102676e-06
1.80000000000000e+02	1.32317775664036e-05,-1.26430335528665e-06
1.90000000000000e+02	1.32328987540013e-05,-1.34751327241091e-06
2.00000000000000e+02	1.32570165850800e-05,-1.43466829877859e-06
2.10000000000000e+02	1.32318535501155e-05,-1.51723221660631e-06
2.20000000000000e+02	1.32306110127294e-05,-1.60583009393228e-06
2.30000000000000e+02	1.32195512126382e-05,-1.69733896208716e-06
2.40000000000000e+02	1.32188970175426e-05,-1.79156111981027e-06
2.50000000000000e+02	1.32345878418556e-05,-1.87470762189527e-06
2.60000000000000e+02	1.31666830621854e-05,-2.02291419561861e-06
2.70000000000000e+02	1.31562011574774e-05,-2.13514542605965e-06
2.80000000000000e+02	1.31052663094825e-05,-2.22175421168828e-06
2.90000000000000e+02	1.30893532987388e-05,-2.42930887339816e-06
3.00000000000000e+02	1.30359667347809e-05,-2.64164262818893e-06
3.10000000000000e+02	1.28090074523141e-05,-2.92769968973098e-06
3.20000000000000e+02	1.25332254636562e-05,-3.60149152603410e-06
3.30000000000000e+02	1.03231707864530e-05,-7.71791774767746e-06
3.40000000000000e+02	1.47293730815700e-05,2.55355488264482e-07
3.50000000000000e+02	1.38350369328002e-05,-1.44274466282669e-06
3.60000000000000e+02	1.36593390873869e-05,-1.77403755158657e-06
3.70000000000000e+02	1.34853856119289e-05,-2.20510102654036e-06
3.80000000000000e+02	1.34142678171411e-05,-2.41321970205033e-06
3.90000000000000e+02	1.33359430104862e-05,-2.46555214172542e-06
4.00000000000000e+02	1.32992924894217e-05,-2.64297958464949e-06
4.10000000000000e+02	1.32616682881129e-05,-2.75179278246827e-06
4.20000000000000e+02	1.32149370238296e-05,-2.89416124960932e-06
4.30000000000000e+02	1.31782583994936e-05,-2.99128826832946e-06
4.40000000000000e+02	1.31488958663572e-05,-3.10382548705449e-06
4.50000000000000e+02	1.31044203226591e-05,-3.18045276764440e-06
4.60000000000000e+02	1.30689808410733e-05,-3.27193219049524e-06
4.70000000000000e+02	1.30219001921197e-05,-3.34472315233034e-06
4.80000000000000e+02	1.29888424239223e-05,-3.43433018116646e-06
4.90000000000000e+02	1.29514191950939e-05,-3.51631572908628e-06
5.00000000000000e+02	1.29131499409189e-05,-3.59363616842947e-06
5.10000000000000e+02	1.28745120070026e-05,-3.66997016103839e-06
5.20000000000000e+02	1.28372195535870e-05,-3.74127228219822e-06
5.30000000000000e+02	1.27959922286958e-05,-3.81568505281066e-06
5.40000000000000e+02	1.27555390032817e-05,-3.88455412327502e-06
5.50000000000000e+02	1.27206157035319e-05,-3.95942454178439e-06
5.60000000000000e+02	1.26784132484689e-05,-4.02267496177032e-06
5.70000000000000e+02	1.26393063481205e-05,-4.08604627597248e-06
5.80000000000000e+02	1.25958049955829e-05,-4.15160623926572e-06
5.90000000000000e+02	1.25556929457748e-05,-4.21284305612728e-06
6.00000000000000e+02	1.25165837018824e-05,-4.27276608279994e-06
6.10000000000000e+02	1.24739978102245e-05,-4.33152411031037e-06
6.20000000000000e+02	1.24327454722189e-05,-4.38872768630653e-06
6.30000000000000e+02	1.23917830688856e-05,-4.44340372889933e-06
6.40000000000000e+02	1.23498885190988e-05,-4.49769618092438e-06
6.50000000000000e+02	1.23064730077109e-05,-4.55022180803297e-06
6.60000000000000e+02	1.22685736454709e-05,-4.60014690861253e-06
6.70000000000000e+02	1.22262299825174e-05,-4.64894630806707e-06
6.80000000000000e+02	1.21809413204313e-05,-4.69595269185793e-06
6.90000000000000e+02	1.21432605828503e-05,-4.74070689283682e-06
7.00000000000000e+02	1.21030993917381e-05,-4.78371125842413e-06
7.10000000000000e+02	1.20566681993033e-05,-4.82347443867074e-06
7.20000000000000e+02	1.20191683707137e-05,-4.86220822761450e-06
7.30000000000000e+02	1.19804162756825e-05,-4.89559446483028e-06
7.40000000000000e+02	1.19407991146536e-05,-4.93659735515278e-06
7.50000000000000e+02	1.19033889109457e-05,-4.96755712845524e-06
7.60000000000000e+02	1.18641544507084e-05,-4.99813137817697e-06
7.70000000000000e+02	1.18321132676968e-05,-5.02514534416958e-06
7.80000000000000e+02	1.17984399336522e-05,-5.05056635896188e-06
7.90000000000000e+02	1.17699339730117e-05,-5.07793642446495e-06
8.00000000000000e+02	1.17392970657462e-05,-5.09890042544630e-06
8.10000000000000e+02	1.17107336714818e-05,-5.11975153154096e-06
8.20000000000000e+02	1.16896643789989e-05,-5.13920349282008e-06
8.30000000000000e+02	1.16672751908430e-05,-5.15776509289125e-06
8.40000000000000e+02	1.16453003016443e-05,-5.18461700528146e-06
8.50000000000000e+02	1.16313947266766e-05,-5.19249519706175e-06
8.60000000000000e+02	1.16160910790021e-05,-5.20874003375612e-06
8.70000000000000e+02	1.16153987406697e-05,-5.22918636970296e-06
8.80000000000000e+02	1.16016674063400e-05,-5.24468428568037e-06
8.90000000000000e+02	1.15848557555114e-05,-5.26131465480026e-06
9.00000000000000e+02	1.16068909100116e-05,-5.28310254703111e-06
9.10000000000000e+02	1.16029011937023e-05,-5.30340948003110e-06
9.20000000000000e+02	1.15897085235398e-05,-5.29158998241644e-06
9.30000000000000e+02	1.16072440321071e-05,-5.35149704519972e-06
9.40000000000000e+02	1.16045750657774e-05,-5.37717808307012e-06
9.50000000000000e+02	1.16525903178560e-05,-5.45048113808511e-06
9.60000000000000e+02	1.16249863905331e-05,-5.50186879755223e-06
9.70000000000000e+02	1.14949630937684e-05,-5.80271070039411e-06
9.80000000000000e+02	1.17954762217504e-05,-5.29232433094284e-06
9.90000000000000e+02	1.17530759685377e-05,-5.43823702195397e-06
1.00000000000000e+03	4.39584599773653e-03,-6.89922845612037e-01
1.01000000000000e+03	1.17403675518639e-05,-5.56594157530991e-06
1.02000000000000e+03	1.16526689079175e-05,-5.63619470861300e-06
1.03000000000000e+03	1.22226851767980e-05,-5.60155774724560e-06
1.04000000000000e+03	1.19747607052961e-05,-5.69899625743981e-06
1.05000000000000e+03	1.19712018222110e-05,-5.74634251255940e-06
1.06000000000000e+03	1.19555580999860e-05,-5.84484381180280e-06
1.07000000000000e+03	1.19744522894343e-05,-5.90305853607180e-06
1.08000000000000e+03	1.20183692904826e-05,-5.92885806584442e-06
1.09000000000000e+03	1.20079360013090e-05,-6.03687124853182e-06
1.10000000000000e+03	1.20191054605346e-05,-6.10458638575981e-06
1.11000000000000e+03	1.20624665656598e-05,-6.20295125494167e-06
1.12000000000000e+03	1.20615803021061e-05,-6.26980182125802e-06
1.13000000000000e+03	1.20643504037210e-05,-6.35902740268853e-06
1.14000000000000e+03	1.20889615847932e-05,-6.41477498206756e-06
1.15000000000000e+03	1.20935152531718e-05,-6.50147949138084e-06
1.16000000000000e+03	1.20949754448926e-05,-6.59718147584473e-06
1.17000000000000e+03	1.21006116245189e-05,-6.67109935116777e-06
1.18000000000000e+03	1.21000931545079e-05,-6.75644555744883e-06
1.19000000000000e+03	1.21029643697320e-05,-6.84589771715933e-06
1.20000000000000e+03	1.20959869238054e-05,-6.93142494712132e-06
1.21000000000000e+03	1.20872579128438e-05,-7.01844921272195e-06
1.22000000000000e+03	1.20813817029246e-05,-7.10570768324998e-06
1.23000000000000e+03	1.20692862396214e-05,-7.19290943224866e-06
1.24000000000000e+03	1.20570328241393e-05,-7.27741302265620e-06
1.25000000000000e+03	1.20397461598526e-05,-7.36666379390408e-06
1.26000000000000e+03	1.20218454820638e-05,-7.45329410368954e-06
1.27000000000000e+03	1.20038820077444e-05,-7.53670714034252e-06
1.28000000000000e+03	1.19822879193171e-05,-7.62285901616687e-06
1.29000000000000e+03	1.19624727261785e-05,-7.70693958084162e-06
1.30000000000000e+03	1.19311257132596e-05,-7.79206048297658e-06
1.31000000000000e+03	1.19062319268085e-05,-7.87509613493078e-06
1.32000000000000e+03	1.18767191055086e-05,-7.95856641385205e-06
1.33000000000000e+03	1.18496992980897e-05,-8.03949246935227e-06
1.34000000000000e+03	1.18185649956880e-05,-8.12024256052001e-06
1.35000000000000e+03	1.17899429535681e-05,-8.20443126030752e-06
1.36000000000000e+03	1.17547948470777e-05,-8.28304527142344e-06
1.37000000000000e+03	1.17188940955347e-05,-8.36333386915587e-06
1.38000000000000e+03	1.16840756136418e-05,-8.44003740168070e-06
1.39000000000000e+03	1.16457868465028e-05,-8.51854699950204e-06
1.40000000000000e+03	1.16095968418954e-05,-8.59773832888220e-06
1.41000000000000e+03	1.15648658868809e-05,-8.67288796001048e-06
1.42000000000000e+03	1.15215060897915e-05,-8.74991135452751e-06
1.43000000000000e+03	1.14797218561687e-05,-8.81681860290842e-06
1.44000000000000e+03	1.14319190101483e-05,-8.89409526584822e-06
1.45000000000000e+03	1.13820750063808e-05,-8.96831553249864e-06
1.46000000000000e+03	1.13356349576943e-05,-9.03559189867203e-06
1.47000000000000e+03	1.12833236812032e-05,-9.10536324160500e-06
1.48000000000000e+03	1.12292749682324e-05,-9.17469789710266e-06
1.49000000000000e+03	1.11740880248583e-05,-9.23846136469205e-06
1.50000000000000e+03	1.11158711265586e-05,-9.30240610141524e-06
1.51000000000000e+03	1.10624572489932e-05,-9.36091657135452e-06
1.52000000000000e+03	1.09990121508927e-05,-9.42178896794599e-06
1.53000000000000e+03	1.09386309938341e-05,-9.48604720500810e-06
1.54000000000000e+03	1.08661987825475e-05,-9.52147827104818e-06
1.55000000000000e+03	1.07990607144118e-05,-9.57404872195533e-06
1.56000000000000e+03	1.07209528657897e-05,-9.63528128148094e-06
1.57000000000000e+03	1.06511923559323e-05,-9.66132530976326e-06
1.58000000000000e+03	1.05637340252271e-05,-9.69527277127698e-06
1.59000000000000e+03	1.05207857833831e-05,-9.73991549208744e-06
1.60000000000000e+03	1.04057323969491e-05,-9.75641210844657e-06
1.61000000000000e+03	1.03023316438999e-05,-9.77526350141454e-06
1.62000000000000e+03	1.01487313016905e-05,-9.75114216905824e-06
1.63000000000000e+03	9.97387037145681e-06,-9.71882936404745e-06
1.64000000000000e+03	9.94848410538767e-06,-9.41946198455469e-06
1.65000000000000e+03	9.16195758375954e-06,-9.35891542729309e-06
1.66000000000000e+03	7.14863571459540e-06,-8.17731126976884e-06
1.67000000000000e+03	1.69313497771370e-05,-1.43241904902781e-05
1.68000000000000e+03	1.19687665656650e-05,-1.13079663190461e-05
1.69000000000000e+03	1.11975151348274e-05,-1.09055996947307e-05
1.70000000000000e+03	1.09284626828543e-05,-1.07759649487583e-05
1.71000000000000e+03	1.07269074182651e-05,-1.07175865512384e-05
1.72000000000000e+03	1.05783229354350e-05,-1.06500755049203e-05
1.73000000000000e+03	1.04900225165755e-05,-1.06931059227419e-05
1.74000000000000e+03	1.04136804793252e-05,-1.07049161705777e-05
1.75000000000000e+03	1.03017283611719e-05,-1.06993470184053e-05
1.76000000000000e+03	1.02586009112938e-05,-1.07306567763416e-05
1.77000000000000e+03	1.02032692356212e-05,-1.07630501296806e-05
1.78000000000000e+03	1.01558297353017e-05,-1.07762408824929e-05
1.79000000000000e+03	1.01076801182584e-05,-1.08087320911759e-05
1.80000000000000e+03	1.00483091737846e-05,-1.08469889758833e-05
1.81000000000000e+03	1.00198279053696e-05,-1.08744776517748e-05
1.82000000000000e+03	9.97880784894887e-06,-1.09078895207842e-05
1.83000000000000e+03	9.93875331956308e-06,-1.09551638201859e-05
1.84000000000000e+03	9.90080746261361e-06,-1.09884649692812e-05
1.85000000000000e+03	9.86917958140861e-06,-1.10300446904112e-05
1.86000000000000e+03	9.81756257558577e-06,-1.10635191302494e-05
1.87000000000000e+03	9.78249272845647e-06,-1.11056207916560e-05
1.88000000000000e+03	9.74805440578836e-06,-1.11427912076905e-05
1.89000000000000e+03	9.70788388530698e-06,-1.11898541458336e-05
1.90000000000000e+03	9.66956279529979e-06,-1.12320834039516e-05
1.91000000000000e+03	9.63469075760547e-06,-1.12790246377744e-05
1.92000000000000e+03	9.59449714351045e-06,-1.13206686888082e-05
1.93000000000000e+03	9.55240607733117e-06,-1.13623694732189e-05
1.94000000000000e+03	9.52043837692311e-06,-1.14104791971756e-05
1.95000000000000e+03	9.47993216571072e-06,-1.14538675459384e-05
1.96000000000000e+03	9.43991230585842e-06,-1.15002637229900e-05
1.97000000000000e+03	9.40026591919082e-06,-1.15421271190250e-05
1.98000000000000e+03	9.36040026645564e-06,-1.15863846295937e-05
1.99000000000000e+03	9.31778332778318e-06,-1.16301042835107e-05
2.00000000000000e+03	9.27772861829304e-06,-1.16742768610394e-05
2.01000000000000e+03	9.23520434443261e-06,-1.17173287054729e-05
2.02000000000000e+03	9.19669207664301e-06,-1.17633616940575e-05
2.03000000000000e+03	9.15420155187321e-06,-1.18068434831486e-05
2.04000000000000e+03	9.10914097793425e-06,-1.18539991260190e-05
2.05000000000000e+03	9.06877392782262e-06,-1.18940981321940e-05
2.06000000000000e+03	9.02502716437016e-06,-1.19370502641227e-05
2.07000000000000e+03	8.98323794205923e-06,-1.19843717951453e-05
2.08000000000000e+03	8.93766643494385e-06,-1.20259199721311e-05
2.09000000000000e+03	8.89283475453063e-06,-1.20681229885611e-05
2.10000000000000e+03	8.84506040361895e-06,-1.21129736587216e-05
2.11000000000000e+03	8.79805576441250e-06,-1.21553425794617e-05
2.12000000000000e+03	8.75201806255397e-06,-1.21943329361508e-05
2.13000000000000e+03	8.70040231587495e-06,-1.22388363229019e-05
2.14000000000000e+03	8.65060831273951e-06,-1.22778366009231e-05
2.15000000000000e+03	8.59132411888552e-06,-1.23291415016642e-05
2.16000000000000e+03	8.53994142374132e-06,-1.23627780832424e-05
2.17000000000000e+03	8.47966757881599e-06,-1.23997077933842e-05
2.18000000000000e+03	8.43282221715782e-06,-1.24353857477595e-05
2.19000000000000e+03	8.37163931241507e-06,-1.24690917376376e-05
2.20000000000000e+03	8.29598783020853e-06,-1.24889901462758e-05
2.21000000000000e+03	8.24610405395740e-06,-1.25285395600475e-05
2.22000000000000e+03	8.17870928618707e-06,-1.25532169346577e-05
2.23000000000000e+03	8.11935976701105e-06,-1.25718325488046e-05
2.24000000000000e+03	8.04315212987611e-06,-1.25867407972672e-05
2.25000000000000e+03	7.96062852662688e-06,-1.25962610061874e-05
2.26000000000000e+03	7.89812394061247e-06,-1.25863409773896e-05
2.27000000000000e+03	7.81130601860535e-06,-1.25699254173499e-05
2.28000000000000e+03	7.73987699425765e-06,-1.25096691210226e-05
2.29000000000000e+03	7.61945463991119e-06,-1.24618702367220e-05
2.30000000000000e+03	7.52868055240155e-06,-1.23459036978166e-05
2.31000000000000e+03	7.05271568548963e-06,-1.19161221899597e-05
2.32000000000000e+03	6.74831889150634e-06,-1.12121599429023e-05
2.33000000000000e+03	4.08974418250748e-06,-5.66765867141994e-06
2.34000000000000e+03	9.26627819810411e-06,-1.68439695275132e-05
2.35000000000000e+03	8.16353623296345e-06,-1.46333115462516e-05
2.36000000000000e+03	7.65238559931788e-06,-1.41686134480635e-05
2.37000000000000e+03	7.66951255896773e-06,-1.38518448426026e-05
2.38000000000000e+03	7.54797589878465e-06,-1.37089141005423e-05
2.39000000000000e+03	7.43284780730286e-06,-1.36896287515840e-05
2.40000000000000e+03	7.35417685587729e-06,-1.36046296380823e-05
2.41000000000000e+03	7.27043258821779e-06,-1.35632457093063e-05
2.42000000000000e+03	7.22016927342832e-06,-1.35301995872236e-05
2.43000000000000e+03	7.15276381519977e-06,-1.35083029344076e-05
2.44000000000000e+03	7.10583667611978e-06,-1.34903872627923e-05
2.45000000000000e+03	7.03525392267811e-06,-1.34769834761660e-05
2.46000000000000e+03	6.98131895008993e-06,-1.34634855916189e-05
2.47000000000000e+03	6.93164760751773e-06,-1.34703897354681e-05
2.48000000000000e+03	6.88222595142164e-06,-1.34562240834525e-05
2.49000000000000e+03	6.83445706256167e-06,-1.34482557157584e-05
2.50000000000000e+03	6.79232538009849e-06,-1.34490629176141e-05
2.51000000000000e+03	6.74900418551791e-06,-1.34460193936662e-05
2.52000000000000e+03	6.70054374373802e-06,-1.34474353927281e-05
2.53000000000000e+03	6.66775130412459e-06,-1.34453567327087e-05
2.54000000000000e+03	6.62955573245296e-06,-1.34478974827674e-05
2.55000000000000e+03	6.58869644793869e-06,-1.34425453777342e-05
2.56000000000000e+03	6.55300726971741e-06,-1.34489454905304e-05
2.57000000000000e+03	6.51276838815274e-06,-1.34518000639453e-05
2.58000000000000e+03	6.48776204063381e-06,-1.34590711165823e-05
2.59000000000000e+03	6.45187858533605e-06,-1.34635680713965e-05
2.60000000000000e+03	6.41568570117064e-06,-1.34733643148494e-05
2.61000000000000e+03	6.38557479066225e-06,-1.34746114182656e-05
2.62000000000000e+03	6.35414295869143e-06,-1.34801337705972e-05
2.63000000000000e+03	6.32085430299822e-06,-1.34905444135997e-05
2.64000000000000e+03	6.29198694939935e-06,-1.34955278664601e-05
2.65000000000000e+03	6.26490791893417e-06,-1.35023472290551e-05
2.66000000000000e+03	6.23208328418279e-06,-1.35098588831008e-05
2.67000000000000e+03	6.20549834521513e-06,-1.35175401622781e-05
2.68000000000000e+03	6.18333610009011e-06,-1.35243158570956e-05
2.69000000000000e+03	6.15409270816578e-06,-1.35341955489927e-05
2.70000000000000e+03	6.12992196227419e-06,-1.35432477002242e-05
2.71000000000000e+03	6.10746503415212e-06,-1.35536566781501e-05
2.72000000000000e+03	6.08524258942689e-06,-1.35641890154868e-05
2.73000000000000e+03	6.06156975233777e-06,-1.35769771334116e-05
2.74000000000000e+03	6.04941175756176e-06,-1.35872838504296e-05
2.75000000000000e+03	6.03027973479133e-06,-1.36018557490418e-05
2.76000000000000e+03	6.01487108547695e-06,-1.36151814910102e-05
2.77000000000000e+03	5.99766252563829e-06,-1.36349309980998e-05
2.78000000000000e+03	5.98339381759847e-06,-1.36541057176794e-05
2.79000000000000e+03	5.96649834293792e-06,-1.36753887605130e-05
2.80000000000000e+03	5.95473889888281e-06,-1.36985685190596e-05
2.81000000000000e+03	5.94553493460085e-06,-1.37228174290409e-05
2.82000000000000e+03	5.92376518376125e-06,-1.37538517075900e-05
2.83000000000000e+03	5.91157293668848e-06,-1.37837690162390e-05
2.84000000000000e+03	5.89780365610633e-06,-1.38160208028533e-05
2.85000000000000e+03	5.88217244743578e-06,-1.38516944799917e-05
2.86000000000000e+03	5.86491768826149e-06,-1.38886737597528e-05
2.87000000000000e+03	5.85141040167104e-06,-1.39327354816745e-05
2.88000000000000e+03	5.82947123027137e-06,-1.39735916003367e-05
2.89000000000000e+03	5.80698334167806e-06,-1.40253988836620e-05
2.90000000000000e+03	5.78369780873874e-06,-1.40517430377647e-05
2.91000000000000e+03	5.75692120099805e-06,-1.41001692553414e-05
2.92000000000000e+03	5.71684800652668e-06,-1.41694969549187e-05
2.93000000000000e+03	5.69664024774202e-06,-1.41886346870101e-05
2.94000000000000e+03	5.66974938086085e-06,-1.42269787571691e-05
2.95000000000000e+03	5.57014959877444e-06,-1.42445261030553e-05
2.96000000000000e+03	5.54322201606826e-06,-1.42232000163897e-05
2.97000000000000e+03	5.41066402166478e-06,-1.37228059054520e-05
2.98000000000000e+03	5.54663271472751e-06,-1.48898619736784e-05
2.99000000000000e+03	5.45950336501817e-06,-1.47213453105631e-05
3.00000000000000e+03	-3.65939718195567e-03,1.48781733441455e-02
3.01000000000000e+03	5.33985276137352e-06,-1.47409039586558e-05
3.02000000000000e+03	5.30221532412959e-06,-1.47593749113152e-05
3.03000000000000e+03	5.08401048441834e-06,-1.48937006501152e-05
3.04000000000000e+03	5.07821249942369e-06,-1.48898384595528e-05
3.05000000000000e+03	4.95059150488865e-06,-1.49401656393904e-05
3.06000000000000e+03	5.01139822417081e-06,-1.49408245280018e-05
