time	V(a)	V(b)	V(vc)	V(vr)	V(vs)
0.000000000000000e+00	0.000000e+00	0.000000e+00	0.000000e+00	0.000000e+00	0.000000e+00
1.124999980258129e-13	9.647553e+00	1.855634e-03	1.574361e-07	5.914975e-05	1.094987e-04
3.871582011508129e-13	1.494355e+01	3.768453e-03	5.431203e-07	2.001835e-04	2.768549e-04
4.481933574008129e-13	1.494135e+01	4.020337e-03	6.289046e-07	2.313076e-04	3.074034e-04
4.634521464633129e-13	1.494077e+01	4.082402e-03	6.503471e-07	2.390891e-04	3.149687e-04
4.939697245883129e-13	1.493961e+01	4.206523e-03	6.932252e-07	2.546527e-04	3.300465e-04
5.550048808383129e-13	1.493730e+01	4.454842e-03	7.789567e-07	2.857798e-04	3.602491e-04
6.770751933383129e-13	1.493268e+01	4.952116e-03	9.503199e-07	3.480336e-04	4.208195e-04
9.212158183383129e-13	1.492344e+01	5.949919e-03	1.292675e-06	4.725404e-04	5.424416e-04
1.342470836066444e-12	1.490756e+01	7.680336e-03	1.882491e-06	6.873698e-04	7.531940e-04
1.751435491958555e-12	1.489228e+01	9.371675e-03	2.453891e-06	8.959284e-04	9.586267e-04
2.318500259201373e-12	1.487144e+01	1.173553e-02	3.244070e-06	1.185106e-03	1.244448e-03
2.992038093123294e-12	1.484734e+01	1.457175e-02	4.179091e-06	1.528517e-03	1.584857e-03
4.232131964761317e-12	1.480477e+01	1.986916e-02	5.890548e-06	2.159287e-03	2.213089e-03
6.217651804646844e-12	1.474136e+01	2.853917e-02	8.602165e-06	3.160811e-03	3.220907e-03
1.018869148441790e-11	1.462874e+01	4.641183e-02	1.392782e-05	5.144669e-03	5.239480e-03
1.634876631857535e-11	1.447988e+01	7.504306e-02	2.197602e-05	8.212312e-03	8.373398e-03
2.303115065054448e-11	1.435486e+01	1.070548e-01	3.034090e-05	1.154412e-02	1.177429e-02
3.639591931448274e-11	1.419017e+01	1.723054e-01	4.610225e-05	1.821437e-02	1.857615e-02
5.158494105678915e-11	1.408777e+01	2.464236e-01	6.265069e-05	2.579410e-02	2.630414e-02
7.223175558898137e-11	1.401969e+01	3.452510e-01	8.303302e-05	3.609268e-02	3.680298e-02
9.532908752353790e-11	1.397956e+01	4.518673e-01	1.035243e-04	4.760586e-02	4.853754e-02
1.230254814522110e-10	1.395919e+01	5.740045e-01	1.255801e-04	6.140052e-02	6.259093e-02
1.501346919454769e-10	1.395798e+01	6.877097e-01	1.450552e-04	7.489058e-02	7.632016e-02
1.816107226278774e-10	1.397256e+01	8.130469e-01	1.655339e-04	9.053808e-02	9.221214e-02
2.153900854768618e-10	1.400057e+01	9.406452e-01	1.854769e-04	1.073120e-01	1.091736e-01
2.565026308465511e-10	1.404584e+01	1.087653e+00	2.073869e-04	1.277011e-01	1.296174e-01
3.038834620095370e-10	1.410685e+01	1.247628e+00	2.300100e-04	1.511640e-01	1.528466e-01
3.597350870764505e-10	1.418478e+01	1.426103e+00	2.539970e-04	1.787804e-01	1.798742e-01
3.936702351376231e-10	1.423358e+01	1.528602e+00	2.671957e-04	1.955352e-01	1.961930e-01
4.331482490319880e-10	1.429035e+01	1.640563e+00	2.812023e-04	2.149985e-01	2.151769e-01
4.766628685520364e-10	1.435133e+01	1.754353e+00	2.953682e-04	2.364199e-01	2.361636e-01
5.381305096197337e-10	1.443338e+01	1.897974e+00	3.135786e-04	2.666264e-01	2.658724e-01
6.018166660362701e-10	1.451230e+01	2.026659e+00	3.306612e-04	2.978612e-01	2.966502e-01
6.699392832397446e-10	1.458729e+01	2.140687e+00	3.470588e-04	3.311935e-01	3.294981e-01
7.568913543736695e-10	1.466401e+01	2.256146e+00	3.657696e-04	3.736258e-01	3.712660e-01
8.562538791040287e-10	1.472155e+01	2.354325e+00	3.847090e-04	4.219614e-01	4.187548e-01
9.786065524123202e-10	1.475881e+01	2.436750e+00	4.051206e-04	4.812600e-01	4.768737e-01
1.113393252011602e-09	1.477775e+01	2.492186e+00	4.245558e-04	5.463019e-01	5.404370e-01
1.274748666265499e-09	1.478789e+01	2.526263e+00	4.443082e-04	6.237683e-01	6.158820e-01
1.465250346284174e-09	1.479407e+01	2.541426e+00	4.636339e-04	7.146699e-01	7.040431e-01
1.708820574139056e-09	1.479863e+01	2.543403e+00	4.834144e-04	8.300300e-01	8.153509e-01
2.004337075186587e-09	1.480142e+01	2.539228e+00	5.018684e-04	9.687284e-01	9.483303e-01
2.358456011054141e-09	1.480225e+01	2.537084e+00	5.182966e-04	1.133211e+00	1.104869e+00
2.706914178664455e-09	1.480103e+01	2.542336e+00	5.300985e-04	1.293242e+00	1.255927e+00
3.059153847200948e-09	1.479799e+01	2.555310e+00	5.388490e-04	1.453158e+00	1.405598e+00
3.376918000733098e-09	1.479354e+01	2.572666e+00	5.447912e-04	1.595779e+00	1.537936e+00
3.723672895325558e-09	1.478607e+01	2.596555e+00	5.497570e-04	1.749572e+00	1.679342e+00
4.125189446195969e-09	1.477065e+01	2.629015e+00	5.542166e-04	1.925356e+00	1.839328e+00
4.608487910219626e-09	1.472229e+01	2.673387e+00	5.583795e-04	2.133808e+00	2.026775e+00
5.160537049361493e-09	1.460312e+01	2.729938e+00	5.620830e-04	2.367797e+00	2.234164e+00
5.806716144403701e-09	1.439749e+01	2.802918e+00	5.655161e-04	2.636323e+00	2.468161e+00
6.484616573556100e-09	1.414430e+01	2.886628e+00	5.684455e-04	2.911820e+00	2.703499e+00
7.271826422938749e-09	1.382237e+01	2.991784e+00	5.712908e-04	3.223814e+00	2.963842e+00
8.156524481465274e-09	1.343512e+01	3.116928e+00	5.740428e-04	3.564594e+00	3.240341e+00
9.214390578787808e-09	1.295013e+01	3.269564e+00	5.769406e-04	3.959037e+00	3.549669e+00
1.037337813622838e-08	1.240486e+01	3.430828e+00	5.798014e-04	4.375624e+00	3.863164e+00
1.165695500458856e-08	1.179588e+01	3.592537e+00	5.827162e-04	4.818760e+00	4.180596e+00
1.297265682356690e-08	1.117714e+01	3.732849e+00	5.855137e-04	5.252954e+00	4.473277e+00
1.461193602443695e-08	1.042918e+01	3.871012e+00	5.888192e-04	5.766418e+00	4.793042e+00
1.663216715156207e-08	9.564169e+00	3.996170e+00	5.927254e-04	6.361460e+00	5.125533e+00
1.905364442196275e-08	8.669788e+00	4.092443e+00	5.972456e-04	7.015191e+00	5.427013e+00
2.361736299005319e-08	7.432469e+00	4.187545e+00	6.055514e-04	8.102260e+00	5.758761e+00
3.008015508864663e-08	6.451047e+00	4.242238e+00	6.171881e-04	9.393541e+00	5.824114e+00
3.859714508001336e-08	5.976922e+00	4.261216e+00	6.325620e-04	1.073925e+01	5.330348e+00
4.804489731506990e-08	5.869347e+00	4.264723e+00	6.497610e-04	1.190021e+01	4.242529e+00
5.324244236591556e-08	5.865024e+00	4.264923e+00	6.592894e-04	1.240522e+01	3.426689e+00
5.682963732485324e-08	5.865123e+00	4.264932e+00	6.658906e-04	1.269550e+01	2.768966e+00
5.889852113108804e-08	5.865148e+00	4.264934e+00	6.697043e-04	1.284647e+01	2.362939e+00
5.992078095747717e-08	5.865152e+00	4.264935e+00	6.716013e-04	1.291656e+01	2.155020e+00
6.045607578564821e-08	5.865153e+00	4.264935e+00	6.726227e-04	1.295207e+01	2.044204e+00
6.072006566270481e-08	5.865155e+00	4.264935e+00	6.731558e-04	1.296928e+01	1.989062e+00
6.096629427633509e-08	5.865156e+00	4.264935e+00	6.736787e-04	1.298516e+01	1.937368e+00
6.112470180045690e-08	5.865156e+00	4.264935e+00	6.740184e-04	1.299531e+01	1.903993e+00
6.130912278874925e-08	5.865157e+00	4.264935e+00	6.744054e-04	1.300706e+01	1.865031e+00
6.138482619140550e-08	5.865157e+00	4.264935e+00	6.745588e-04	1.301186e+01	1.849005e+00
6.146394888674982e-08	5.865158e+00	4.264935e+00	6.747145e-04	1.301686e+01	1.832226e+00
6.155201143152629e-08	5.865158e+00	4.264936e+00	6.748851e-04	1.302242e+01	1.813525e+00
6.165004951854463e-08	5.865158e+00	4.264936e+00	6.750731e-04	1.302858e+01	1.792676e+00
6.173853870510601e-08	5.865158e+00	4.264936e+00	6.752416e-04	1.303412e+01	1.773830e+00
6.183834808594312e-08	5.865159e+00	4.264936e+00	6.754307e-04	1.304035e+01	1.752537e+00
6.197218339799349e-08	5.865159e+00	4.264936e+00	6.756834e-04	1.304867e+01	1.723929e+00
6.214226659594447e-08	5.865160e+00	4.264936e+00	6.760036e-04	1.305919e+01	1.687473e+00
6.244347977150335e-08	5.865160e+00	4.264936e+00	6.765697e-04	1.307766e+01	1.622680e+00
6.275076483576628e-08	5.865161e+00	4.264936e+00	6.771467e-04	1.309630e+01	1.556249e+00
6.327903327232627e-08	5.865162e+00	4.264936e+00	6.781383e-04	1.312790e+01	1.441318e+00
6.383004811209480e-08	5.865163e+00	4.264936e+00	6.791734e-04	1.316024e+01	1.320426e+00
6.474059812455428e-08	5.865164e+00	4.264936e+00	6.808867e-04	1.321237e+01	1.118546e+00
6.570436929797773e-08	5.865166e+00	4.264937e+00	6.827053e-04	1.326577e+01	9.020053e-01
6.719807523468482e-08	5.865167e+00	4.264937e+00	6.855337e-04	1.334572e+01	5.619004e-01
6.796924687288546e-08	5.865168e+00	4.264937e+00	6.869990e-04	1.338574e+01	3.863240e-01
6.839874200685892e-08	5.865168e+00	4.264937e+00	6.878173e-04	1.340748e+01	2.956154e-01
6.863430779504999e-08	5.865168e+00	4.264937e+00	6.882670e-04	1.341924e+01	2.578734e-01
6.886188300459068e-08	5.865168e+00	4.264937e+00	6.887019e-04	1.343049e+01	2.352510e-01
6.910375974960812e-08	5.865168e+00	4.264937e+00	6.891646e-04	1.344235e+01	2.206928e-01
6.937568669365873e-08	5.865168e+00	4.264937e+00	6.896855e-04	1.345556e+01	2.106001e-01
6.979957670809989e-08	5.865169e+00	4.264937e+00	6.904989e-04	1.347585e+01	2.012244e-01
7.055138683646013e-08	5.865169e+00	4.264937e+00	6.919453e-04	1.351114e+01	1.919517e-01
7.148165094177805e-08	5.865169e+00	4.264937e+00	6.937418e-04	1.355363e+01	1.860953e-01
7.267634199340959e-08	5.865169e+00	4.264937e+00	6.960600e-04	1.360632e+01	1.825211e-01
7.395194401549082e-08	5.865170e+00	4.264937e+00	6.985507e-04	1.366016e+01	1.804956e-01
7.585637058969294e-08	5.865170e+00	4.264937e+00	7.023013e-04	1.373596e+01	1.785154e-01
7.856686216949583e-08	5.865170e+00	4.264937e+00	7.077091e-04	1.383500e+01	1.762213e-01
8.313659188410555e-08	5.865170e+00	4.264937e+00	7.169844e-04	1.398425e+01	1.728338e-01
8.761662743357007e-08	5.865170e+00	4.264937e+00	7.262997e-04	1.410971e+01	1.699240e-01
9.485603711097818e-08	5.865170e+00	4.264937e+00	7.417322e-04	1.428043e+01	1.658043e-01
9.898854401732556e-08	5.865170e+00	4.264937e+00	7.506912e-04	1.436317e+01	1.636993e-01
1.024076945032929e-07	5.865170e+00	4.264937e+00	7.580859e-04	1.442184e+01	1.621155e-01
1.052368090097844e-07	5.865170e+00	4.264937e+00	7.640286e-04	1.446560e+01	1.608810e-01
1.069751029335150e-07	5.865170e+00	4.264937e+00	7.675310e-04	1.449053e+01	1.601532e-01
1.078116872078410e-07	5.865170e+00	4.264937e+00	7.691602e-04	1.450195e+01	1.598120e-01
1.081582916123143e-07	5.865170e+00	4.264937e+00	7.698247e-04	1.450655e+01	1.596726e-01
1.083955563517761e-07	5.865170e+00	4.264937e+00	7.702779e-04	1.450966e+01	1.595779e-01
1.086644858221787e-07	5.865170e+00	4.264937e+00	7.707913e-04	1.451315e+01	1.594711e-01
1.089199551239774e-07	5.865170e+00	4.264937e+00	7.712789e-04	1.451644e+01	1.593700e-01
1.091591514516351e-07	5.865170e+00	4.264937e+00	7.717353e-04	1.451949e+01	1.592758e-01
1.094071644639647e-07	5.865170e+00	4.264937e+00	7.722084e-04	1.452263e+01	1.591785e-01
1.096481180847564e-07	5.865170e+00	4.264937e+00	7.726682e-04	1.452565e+01	1.590844e-01
1.098921602963566e-07	5.865170e+00	4.264937e+00	7.731338e-04	1.452869e+01	1.589895e-01
1.101404898586749e-07	5.865170e+00	4.264937e+00	7.736076e-04	1.453176e+01	1.588933e-01
1.103953616284048e-07	5.865170e+00	4.264937e+00	7.740940e-04	1.453488e+01	1.587950e-01
1.106606919162642e-07	5.865170e+00	4.264937e+00	7.746003e-04	1.453811e+01	1.586931e-01
1.107752166753417e-07	5.865170e+00	4.264937e+00	7.748188e-04	1.453949e+01	1.586492e-01
1.108423166133986e-07	5.865170e+00	4.264937e+00	7.749469e-04	1.454030e+01	1.586235e-01
1.108887446830894e-07	5.865170e+00	4.264937e+00	7.750355e-04	1.454085e+01	1.586058e-01
1.109201833402189e-07	5.865170e+00	4.264937e+00	7.750955e-04	1.454123e+01	1.585938e-01
1.109491767171145e-07	5.865170e+00	4.264937e+00	7.751508e-04	1.454158e+01	1.585827e-01
1.109790638527139e-07	5.865170e+00	4.264937e+00	7.752079e-04	1.454193e+01	1.585713e-01
1.110090277138524e-07	5.865170e+00	4.264937e+00	7.752650e-04	1.454229e+01	1.585599e-01
1.110457999232179e-07	5.865170e+00	4.264937e+00	7.753352e-04	1.454273e+01	1.585459e-01
1.110889995131694e-07	5.865170e+00	4.264937e+00	7.754177e-04	1.454325e+01	1.585295e-01
1.111430928852748e-07	5.865170e+00	4.264937e+00	7.755209e-04	1.454389e+01	1.585089e-01
1.112125675755182e-07	5.865170e+00	4.264937e+00	7.756535e-04	1.454471e+01	1.584825e-01
1.113004931564703e-07	5.865170e+00	4.264937e+00	7.758214e-04	1.454576e+01	1.584492e-01
1.114164666414320e-07	5.865170e+00	4.264937e+00	7.760428e-04	1.454712e+01	1.584053e-01
1.115659150448604e-07	5.865170e+00	4.264937e+00	7.763280e-04	1.454888e+01	1.583488e-01
1.117631451528918e-07	5.865170e+00	4.264937e+00	7.767046e-04	1.455118e+01	1.582745e-01
1.120368702815725e-07	5.865170e+00	4.264937e+00	7.772272e-04	1.455435e+01	1.581719e-01
1.124601670834450e-07	5.865170e+00	4.264937e+00	7.780356e-04	1.455918e+01	1.580141e-01
1.131653467808803e-07	5.865170e+00	4.264937e+00	7.793828e-04	1.456705e+01	1.577543e-01
1.144971197856756e-07	5.865170e+00	4.264937e+00	7.819287e-04	1.458138e+01	1.572721e-01
1.164967357592268e-07	5.865170e+00	4.264937e+00	7.857545e-04	1.460182e+01	1.565653e-01
1.185678748905571e-07	5.865170e+00	4.264937e+00	7.897220e-04	1.462162e+01	1.558555e-01
1.212601667188987e-07	5.865170e+00	4.264937e+00	7.948870e-04	1.464529e+01	1.549667e-01
1.246271723829583e-07	5.865170e+00	4.264937e+00	8.013588e-04	1.467191e+01	1.539048e-01
1.293515746967541e-07	5.865170e+00	4.264937e+00	8.104627e-04	1.470444e+01	1.524983e-01
1.355685263907538e-07	5.865170e+00	4.264937e+00	8.224746e-04	1.474123e+01	1.507537e-01
1.393384280775061e-07	5.865170e+00	4.264937e+00	8.297775e-04	1.476040e+01	1.497534e-01
1.424753180644169e-07	5.865170e+00	4.264937e+00	8.358672e-04	1.477439e+01	1.489582e-01
1.443209007726602e-07	5.865170e+00	4.264937e+00	8.394554e-04	1.478191e+01	1.485045e-01
1.461961552289044e-07	5.865170e+00	4.264937e+00	8.431048e-04	1.478907e+01	1.480534e-01
1.468321979986149e-07	5.865170e+00	4.264937e+00	8.443433e-04	1.479140e+01	1.479025e-01
1.475082170608126e-07	5.865170e+00	4.264937e+00	8.456603e-04	1.479379e+01	1.477439e-01
1.482252780300135e-07	5.865170e+00	4.264937e+00	8.470578e-04	1.479628e+01	1.475769e-01
1.489186568756808e-07	5.865170e+00	4.264937e+00	8.484098e-04	1.479861e+01	1.474168e-01
1.500592571263420e-07	5.865170e+00	4.264937e+00	8.506349e-04	1.480234e+01	1.471561e-01
1.512479360534939e-07	5.865170e+00	4.264937e+00	8.529554e-04	1.480607e+01	1.468878e-01
1.530219057284141e-07	5.865170e+00	4.264937e+00	8.564214e-04	1.481136e+01	1.464938e-01
1.549848766702999e-07	5.865170e+00	4.264937e+00	8.602610e-04	1.481684e+01	1.460669e-01
1.581532368210092e-07	5.865170e+00	4.264937e+00	8.664670e-04	1.482498e+01	1.453949e-01
1.611283965779216e-07	5.865170e+00	4.264937e+00	8.723059e-04	1.483182e+01	1.447848e-01
1.667652120418965e-07	5.865170e+00	4.264937e+00	8.833956e-04	1.484304e+01	1.436764e-01
1.724820003828449e-07	5.865170e+00	4.264937e+00	8.946821e-04	1.485234e+01	1.426159e-01
1.839155770647415e-07	5.865170e+00	4.264937e+00	9.173749e-04	1.486588e+01	1.406738e-01
2.027917655044943e-07	5.865170e+00	4.264937e+00	9.550998e-04	1.487989e+01	1.378438e-01
2.323440892829111e-07	5.865170e+00	4.264937e+00	1.014575e-03	1.489130e+01	1.340326e-01
2.571698960304331e-07	5.865170e+00	4.264937e+00	1.064810e-03	1.489556e+01	1.312917e-01
2.796718682279214e-07	5.865170e+00	4.264937e+00	1.110503e-03	1.489707e+01	1.291350e-01
2.959628309180941e-07	5.865170e+00	4.264937e+00	1.143645e-03	1.489759e+01	1.277290e-01
3.078788318414642e-07	5.865170e+00	4.264937e+00	1.167917e-03	1.489780e+01	1.267805e-01
3.194680786916046e-07	5.865170e+00	4.264937e+00	1.191544e-03	1.489793e+01	1.259180e-01
3.348863169387452e-07	5.865170e+00	4.264937e+00	1.223001e-03	1.489804e+01	1.248391e-01
3.486928879736184e-07	5.865170e+00	4.264937e+00	1.251188e-03	1.489810e+01	1.239299e-01
3.618367727484551e-07	5.865170e+00	4.264937e+00	1.278037e-03	1.489813e+01	1.231159e-01
3.758238691815937e-07	5.865170e+00	4.264937e+00	1.306613e-03	1.489816e+01	1.222971e-01
3.881957633181711e-07	5.865170e+00	4.264937e+00	1.331883e-03	1.489817e+01	1.216085e-01
3.979713098074865e-07	5.865170e+00	4.264937e+00	1.351827e-03	1.489818e+01	1.210890e-01
4.080236573271972e-07	5.865170e+00	4.264937e+00	1.372286e-03	1.489818e+01	1.205777e-01
4.209433562014177e-07	5.865170e+00	4.264937e+00	1.398482e-03	1.489819e+01	1.199491e-01
4.350614334092030e-07	5.865170e+00	4.264937e+00	1.426952e-03	1.489819e+01	1.192991e-01
4.585788541573598e-07	5.865170e+00	4.264937e+00	1.473995e-03	1.489819e+01	1.182971e-01
4.967432018006202e-07	5.865170e+00	4.264937e+00	1.549483e-03	1.489819e+01	1.168410e-01
5.550731584406625e-07	5.865170e+00	4.264937e+00	1.663335e-03	1.489820e+01	1.149067e-01
6.126109047460097e-07	5.865170e+00	4.264937e+00	1.774177e-03	1.489820e+01	1.132710e-01
6.614212363809529e-07	5.865170e+00	4.264937e+00	1.867124e-03	1.489820e+01	1.120834e-01
7.100996020296417e-07	5.865170e+00	4.264937e+00	1.958982e-03	1.489820e+01	1.110565e-01
7.616925296965371e-07	5.865170e+00	4.264937e+00	2.055651e-03	1.489820e+01	1.101023e-01
8.129856502245953e-07	5.865170e+00	4.264937e+00	2.151203e-03	1.489820e+01	1.092678e-01
8.641792986639545e-07	5.865170e+00	4.264937e+00	2.246124e-03	1.489820e+01	1.085330e-01
9.145010953605410e-07	5.865170e+00	4.264937e+00	2.339089e-03	1.489820e+01	1.078932e-01
9.650807895492009e-07	5.865170e+00	4.264937e+00	2.432271e-03	1.489820e+01	1.073218e-01
1.017100120885516e-06	5.865170e+00	4.264937e+00	2.527900e-03	1.489820e+01	1.068020e-01
1.082470848099932e-06	5.865170e+00	4.264937e+00	2.647889e-03	1.489820e+01	1.062298e-01
1.157256261263447e-06	5.865170e+00	4.264937e+00	2.785028e-03	1.489820e+01	1.056674e-01
1.252028685568525e-06	5.865170e+00	4.264937e+00	2.958772e-03	1.489820e+01	1.050722e-01
1.366000657562655e-06	5.865170e+00	4.264937e+00	3.167840e-03	1.489820e+01	1.044966e-01
1.521565420992814e-06	5.865170e+00	4.264937e+00	3.453599e-03	1.489820e+01	1.038854e-01
1.664647283360861e-06	5.865170e+00	4.264937e+00	3.716961e-03	1.489820e+01	1.034575e-01
1.810269469217140e-06	5.865170e+00	4.264937e+00	3.985637e-03	1.489820e+01	1.031304e-01
1.944821353482866e-06	5.865170e+00	4.264937e+00	4.234501e-03	1.489820e+01	1.029004e-01
2.087672834422621e-06	5.865170e+00	4.264937e+00	4.499379e-03	1.489820e+01	1.027137e-01
2.225881620192691e-06	5.865170e+00	4.264937e+00	4.756292e-03	1.489820e+01	1.025750e-01
2.370629266052946e-06	5.865170e+00	4.264937e+00	5.026045e-03	1.489820e+01	1.024638e-01
2.511076301959043e-06	5.865170e+00	4.264937e+00	5.288449e-03	1.489820e+01	1.023810e-01
2.656441738996183e-06	5.865170e+00	4.264937e+00	5.560736e-03	1.489820e+01	1.023155e-01
2.800232652227579e-06	5.865170e+00	4.264937e+00	5.830763e-03	1.489820e+01	1.022660e-01
2.949928786979814e-06	5.865170e+00	4.264937e+00	6.112609e-03	1.489820e+01	1.022268e-01
3.101635808340909e-06	5.865170e+00	4.264937e+00	6.399000e-03	1.489820e+01	1.021968e-01
3.264431445833700e-06	5.865170e+00	4.264937e+00	6.707171e-03	1.489820e+01	1.021727e-01
3.435867758565955e-06	5.865170e+00	4.264937e+00	7.032648e-03	1.489820e+01	1.021541e-01
3.627125361111784e-06	5.865170e+00	4.264937e+00	7.396908e-03	1.489820e+01	1.021392e-01
3.841648912353059e-06	5.865170e+00	4.264937e+00	7.806928e-03	1.489820e+01	1.021278e-01
4.097775906164499e-06	5.865170e+00	4.264937e+00	8.298478e-03	1.489820e+01	1.021189e-01
4.410189321974505e-06	5.865170e+00	4.264937e+00	8.901041e-03	1.489820e+01	1.021124e-01
4.819526664777477e-06	5.865170e+00	4.264937e+00	9.695565e-03	1.489820e+01	1.021079e-01
5.383346473624916e-06	5.865170e+00	4.264937e+00	1.079949e-02	1.489820e+01	1.021053e-01
6.254010044247900e-06	5.865170e+00	4.264937e+00	1.252693e-02	1.489820e+01	1.021040e-01
7.812039113144592e-06	5.865170e+00	4.264937e+00	1.568740e-02	1.489820e+01	1.021036e-01
1.092809725093798e-05	5.865170e+00	4.264937e+00	2.221029e-02	1.489820e+01	1.021036e-01
1.509993800874015e-05	5.865170e+00	4.264937e+00	3.129864e-02	1.489820e+01	1.021036e-01
2.145243561930985e-05	5.865170e+00	4.264937e+00	4.571358e-02	1.489820e+01	1.021036e-01
2.870396230790889e-05	5.865170e+00	4.264937e+00	6.267692e-02	1.489820e+01	1.021036e-01
3.313578475814842e-05	5.865170e+00	4.264937e+00	7.325130e-02	1.489820e+01	1.021036e-01
3.794546409413837e-05	5.865170e+00	4.264937e+00	8.485252e-02	1.489820e+01	1.021036e-01
4.305281740466583e-05	5.865170e+00	4.264937e+00	9.723292e-02	1.489820e+01	1.021036e-01
4.832659155459647e-05	5.865170e+00	4.264937e+00	1.100530e-01	1.489820e+01	1.021036e-01
5.333666975957428e-05	5.865170e+00	4.264937e+00	1.222487e-01	1.489820e+01	1.021036e-01
5.937379105506823e-05	5.865170e+00	4.264937e+00	1.369502e-01	1.489820e+01	1.021036e-01
6.616749194276160e-05	5.865170e+00	4.264937e+00	1.534892e-01	1.489820e+01	1.021036e-01
