time	V(n001)	V(n003)
0.000000000000000e+00	-1.000000e+01	1.267545e+01
7.314285685059273e-10	-9.999971e+00	1.267545e+01
1.462857137011855e-09	-9.999942e+00	1.267545e+01
2.194285705517782e-09	-9.999913e+00	1.267545e+01
2.925714274023709e-09	-9.999883e+00	1.267545e+01
3.657142842529636e-09	-9.999854e+00	1.267545e+01
4.388571411035564e-09	-9.999824e+00	1.267545e+01
5.119999979541490e-09	-9.999795e+00	1.267545e+01
3.703107199947651e-04	4.812429e+00	1.267546e+01
3.713107199947652e-04	4.852429e+00	1.267545e+01
3.723107199947652e-04	4.892429e+00	1.267545e+01
3.733107199947652e-04	4.932429e+00	1.267546e+01
3.743107199947652e-04	4.972429e+00	1.267546e+01
3.753107199947653e-04	5.012429e+00	1.267546e+01
3.763107199947653e-04	5.052429e+00	1.267546e+01
3.773107199947653e-04	5.092429e+00	1.267546e+01
3.783107199947653e-04	5.132429e+00	1.252018e+01
3.787932891331355e-04	5.151731e+00	1.206677e+01
3.792898099292339e-04	5.171592e+00	1.094606e+01
3.798870932656423e-04	5.195484e+00	8.675071e+00
3.807710805443113e-04	5.230843e+00	3.780618e+00
3.816803171613530e-04	5.267213e+00	-2.591825e+00
3.824849617431182e-04	5.299398e+00	-8.640370e+00
3.829559608819305e-04	5.318238e+00	-1.173729e+01
3.832296276143576e-04	5.329185e+00	-1.291733e+01
3.833321054748523e-04	5.333284e+00	-1.307882e+01
3.833971182492583e-04	5.335885e+00	-1.309088e+01
3.836006519744280e-04	5.344026e+00	-1.310563e+01
3.839014864454037e-04	5.356060e+00	-1.311232e+01
4.994151127465403e-04	9.976604e+00	-1.311523e+01
5.000000000000000e-04	1.000000e+01	-1.311587e+01
5.000000000300000e-04	1.000000e+01	-1.311587e+01
5.000001498353955e-04	9.999994e+00	-1.311580e+01
5.000002996407910e-04	9.999988e+00	-1.311574e+01
5.000004494461865e-04	9.999982e+00	-1.311568e+01
5.000005992515820e-04	9.999976e+00	-1.311564e+01
5.000007490569775e-04	9.999970e+00	-1.311559e+01
5.000008988623730e-04	9.999964e+00	-1.311556e+01
5.000010486677685e-04	9.999958e+00	-1.311553e+01
5.000020972435369e-04	9.999916e+00	-1.311538e+01
5.000041943950738e-04	9.999832e+00	-1.311527e+01
5.000083886981475e-04	9.999664e+00	-1.311522e+01
5.000335545165900e-04	9.998658e+00	-1.311522e+01
8.740737416788880e-04	-4.962950e+00	-1.311521e+01
8.770737416788880e-04	-5.082950e+00	-1.310354e+01
8.780737416788881e-04	-5.122950e+00	-1.307068e+01
8.787276030609260e-04	-5.149104e+00	-1.298330e+01
8.791066689102156e-04	-5.164267e+00	-1.274958e+01
8.793826050053008e-04	-5.175304e+00	-1.229252e+01
8.796478212567875e-04	-5.185913e+00	-1.149360e+01
8.800909029484769e-04	-5.203636e+00	-9.492398e+00
8.806936249722290e-04	-5.227745e+00	-5.735332e+00
8.814041685830399e-04	-5.256167e+00	1.334547e-02
8.824041685830399e-04	-5.296167e+00	9.135126e+00
8.827961428427205e-04	-5.311846e+00	1.249460e+01
8.828101385359781e-04	-5.312406e+00	1.257296e+01
8.828381299224932e-04	-5.313525e+00	1.263634e+01
8.828866463564959e-04	-5.315466e+00	1.267163e+01
8.829300721357375e-04	-5.317203e+00	1.267579e+01
8.829770836828298e-04	-5.319083e+00	1.267545e+01
9.513372357397229e-04	-8.053490e+00	1.267545e+01
9.990000001000000e-04	-9.960000e+00	1.267545e+01
1.000000000100000e-03	-1.000000e+01	1.267545e+01
1.000100000100000e-03	-9.996000e+00	1.267545e+01
1.000300000100000e-03	-9.988000e+00	1.267545e+01
1.053185714385710e-03	-7.872571e+00	1.267545e+01
1.106071428671420e-03	-5.757143e+00	1.267545e+01
1.158957142957129e-03	-3.641714e+00	1.267545e+01
1.211842857242839e-03	-1.526286e+00	1.267545e+01
1.264728571528549e-03	5.891428e-01	1.267545e+01
1.317614285814259e-03	2.704571e+00	1.267545e+01
1.370500000099969e-03	4.820000e+00	1.267546e+01
1.371357142957112e-03	4.854286e+00	1.267545e+01
1.372214285814254e-03	4.888572e+00	1.267545e+01
1.373071428671397e-03	4.922857e+00	1.267546e+01
1.373928571528540e-03	4.957143e+00	1.267546e+01
1.374785714385683e-03	4.991429e+00	1.267546e+01
1.375642857242826e-03	5.025714e+00	1.267546e+01
1.376500000099968e-03	5.060000e+00	1.267546e+01
1.377500000099968e-03	5.100000e+00	1.267133e+01
1.378347297271873e-03	5.133892e+00	1.250104e+01
1.378776188784543e-03	5.151048e+00	1.205975e+01
1.379217910075066e-03	5.168716e+00	1.107335e+01
1.379681994711041e-03	5.187280e+00	9.395622e+00
1.380544376869207e-03	5.221775e+00	4.858004e+00
1.381497086128280e-03	5.259883e+00	-1.577485e+00
1.382382310403687e-03	5.295292e+00	-8.158052e+00
1.382879596409666e-03	5.315184e+00	-1.148590e+01
1.383183586665877e-03	5.327343e+00	-1.288598e+01
1.383291113424546e-03	5.331645e+00	-1.307672e+01
1.383358813657875e-03	5.334352e+00	-1.309016e+01
1.383440710558709e-03	5.337628e+00	-1.309853e+01
1.383553446582998e-03	5.342138e+00	-1.310518e+01
1.383814401921444e-03	5.352576e+00	-1.311175e+01
1.499000000100002e-03	9.960000e+00	-1.311523e+01
1.500000000100002e-03	1.000000e+01	-1.311609e+01
1.500000000110002e-03	1.000000e+01	-1.311609e+01
1.500000000194859e-03	1.000000e+01	-1.311609e+01
1.500000000279717e-03	1.000000e+01	-1.311609e+01
1.500000000364574e-03	1.000000e+01	-1.311609e+01
1.500000000449431e-03	1.000000e+01	-1.311609e+01
1.500000000534288e-03	1.000000e+01	-1.311609e+01
1.500000000619145e-03	1.000000e+01	-1.311609e+01
1.500000000704003e-03	1.000000e+01	-1.311609e+01
1.500000150427560e-03	9.999994e+00	-1.311600e+01
1.500000300151118e-03	9.999988e+00	-1.311592e+01
1.500000449874676e-03	9.999982e+00	-1.311584e+01
1.500000599598234e-03	9.999976e+00	-1.311578e+01
1.500000749321792e-03	9.999970e+00	-1.311572e+01
1.500000899045350e-03	9.999964e+00	-1.311567e+01
1.500001048768907e-03	9.999958e+00	-1.311564e+01
1.500002097345813e-03	9.999916e+00	-1.311544e+01
1.500004194499623e-03	9.999832e+00	-1.311528e+01
1.500008388807245e-03	9.999664e+00	-1.311522e+01
1.500016777422487e-03	9.999329e+00	-1.311522e+01
1.874073742943003e-03	-4.962950e+00	-1.311521e+01
1.877073742943003e-03	-5.082950e+00	-1.310354e+01
1.878073742943003e-03	-5.122950e+00	-1.307068e+01
1.878727604370688e-03	-5.149104e+00	-1.298330e+01
1.879106670353347e-03	-5.164267e+00	-1.274957e+01
1.879382607254841e-03	-5.175304e+00	-1.229252e+01
1.879647824321419e-03	-5.185913e+00	-1.149359e+01
1.880090909937220e-03	-5.203636e+00	-9.492368e+00
1.880693623964888e-03	-5.227745e+00	-5.735349e+00
1.881404167003442e-03	-5.256166e+00	1.332508e-02
1.882404167003442e-03	-5.296167e+00	9.135110e+00
1.882796141546797e-03	-5.311846e+00	1.249460e+01
1.882810137193065e-03	-5.312406e+00	1.257296e+01
1.882838128485599e-03	-5.313525e+00	1.263634e+01
1.882886644554214e-03	-5.315466e+00	1.267163e+01
1.882930069831047e-03	-5.317203e+00	1.267579e+01
1.882977080973302e-03	-5.319083e+00	1.267545e+01
1.917337239541659e-03	-6.693490e+00	1.267545e+01
1.999000000200002e-03	-9.960000e+00	1.267545e+01
2.000000000200002e-03	-1.000000e+01	1.267545e+01
2.000100000200002e-03	-9.996000e+00	1.267545e+01
2.000300000200002e-03	-9.988000e+00	1.267545e+01
2.053185714485724e-03	-7.872571e+00	1.267545e+01
2.106071428771445e-03	-5.757143e+00	1.267545e+01
2.158957143057166e-03	-3.641714e+00	1.267545e+01
2.211842857342888e-03	-1.526286e+00	1.267545e+01
2.264728571628609e-03	5.891428e-01	1.267545e+01
2.317614285914330e-03	2.704571e+00	1.267545e+01
2.370500000200051e-03	4.820000e+00	1.267546e+01
2.371357143057194e-03	4.854286e+00	1.267545e+01
2.372214285914337e-03	4.888572e+00	1.267545e+01
2.373071428771480e-03	4.922857e+00	1.267546e+01
2.373928571628623e-03	4.957143e+00	1.267546e+01
2.374785714485766e-03	4.991429e+00	1.267546e+01
2.375642857342909e-03	5.025714e+00	1.267546e+01
2.376500000200052e-03	5.060000e+00	1.267546e+01
2.377500000200052e-03	5.100000e+00	1.267133e+01
2.378347297371847e-03	5.133892e+00	1.250104e+01
2.378776188884487e-03	5.151048e+00	1.205975e+01
2.379217910174983e-03	5.168716e+00	1.107335e+01
2.379681994810974e-03	5.187280e+00	9.395622e+00
2.380544376969516e-03	5.221775e+00	4.858004e+00
2.381497086228339e-03	5.259883e+00	-1.577485e+00
2.382382310503698e-03	5.295292e+00	-8.158052e+00
2.382879596509685e-03	5.315184e+00	-1.148590e+01
2.383183586765900e-03	5.327343e+00	-1.288598e+01
2.383291113524586e-03	5.331645e+00	-1.307672e+01
2.383358813757918e-03	5.334352e+00	-1.309016e+01
2.383440710658751e-03	5.337628e+00	-1.309853e+01
2.383553446683040e-03	5.342138e+00	-1.310518e+01
2.383814402021465e-03	5.352576e+00	-1.311175e+01
2.499000000200004e-03	9.960000e+00	-1.311523e+01
2.500000000200004e-03	1.000000e+01	-1.311609e+01
2.500000000210004e-03	1.000000e+01	-1.311609e+01
2.500000000294861e-03	1.000000e+01	-1.311609e+01
2.500000000379718e-03	1.000000e+01	-1.311609e+01
2.500000000464575e-03	1.000000e+01	-1.311609e+01
2.500000000549433e-03	1.000000e+01	-1.311609e+01
2.500000000634290e-03	1.000000e+01	-1.311609e+01
2.500000000719147e-03	1.000000e+01	-1.311609e+01
2.500000000804004e-03	1.000000e+01	-1.311609e+01
2.500000150527237e-03	9.999994e+00	-1.311600e+01
2.500000300250470e-03	9.999988e+00	-1.311592e+01
2.500000449973703e-03	9.999982e+00	-1.311584e+01
2.500000599696936e-03	9.999976e+00	-1.311578e+01
2.500000749420169e-03	9.999970e+00	-1.311572e+01
2.500000899143403e-03	9.999964e+00	-1.311567e+01
2.500001048866636e-03	9.999958e+00	-1.311564e+01
2.500002097441267e-03	9.999916e+00	-1.311544e+01
2.500004194590530e-03	9.999832e+00	-1.311528e+01
2.500008388889057e-03	9.999664e+00	-1.311522e+01
2.500016777486109e-03	9.999329e+00	-1.311522e+01
2.874073740714779e-03	-4.962950e+00	-1.311521e+01
2.877073740714780e-03	-5.082950e+00	-1.310354e+01
2.878073740714780e-03	-5.122950e+00	-1.307068e+01
2.878727603479371e-03	-5.149104e+00	-1.298330e+01
2.879106669170894e-03	-5.164267e+00	-1.274957e+01
2.879382606114403e-03	-5.175304e+00	-1.229252e+01
2.879647823565585e-03	-5.185913e+00	-1.149359e+01
2.880090909263916e-03	-5.203636e+00	-9.492362e+00
2.880693623103295e-03	-5.227745e+00	-5.735343e+00
2.881404167875620e-03	-5.256167e+00	1.334805e-02
2.882404167875620e-03	-5.296167e+00	9.135128e+00
2.882796142024451e-03	-5.311846e+00	1.249460e+01
2.882810137753256e-03	-5.312406e+00	1.257296e+01
2.882838129210865e-03	-5.313525e+00	1.263634e+01
2.882886645585001e-03	-5.315466e+00	1.267163e+01
2.882930071313634e-03	-5.317203e+00	1.267579e+01
2.882977082850861e-03	-5.319083e+00	1.267545e+01
2.883635244372052e-03	-5.345410e+00	1.267545e+01
2.999000000300004e-03	-9.960000e+00	1.267545e+01
3.000000000300004e-03	-1.000000e+01	1.267545e+01
3.000100000300004e-03	-9.996000e+00	1.267545e+01
3.000300000300004e-03	-9.988000e+00	1.267545e+01
3.053185714585725e-03	-7.872571e+00	1.267545e+01
3.106071428871446e-03	-5.757143e+00	1.267545e+01
3.158957143157168e-03	-3.641714e+00	1.267545e+01
3.211842857442889e-03	-1.526286e+00	1.267545e+01
3.264728571728610e-03	5.891428e-01	1.267545e+01
3.317614286014332e-03	2.704571e+00	1.267545e+01
3.370500000300053e-03	4.820000e+00	1.267546e+01
3.371357143157196e-03	4.854286e+00	1.267545e+01
3.372214286014339e-03	4.888572e+00	1.267545e+01
3.373071428871482e-03	4.922857e+00	1.267546e+01
3.373928571728625e-03	4.957143e+00	1.267546e+01
3.374785714585768e-03	4.991429e+00	1.267546e+01
3.375642857442910e-03	5.025714e+00	1.267546e+01
3.376500000300054e-03	5.060000e+00	1.267546e+01
3.377500000300054e-03	5.100000e+00	1.267133e+01
3.378347297471842e-03	5.133892e+00	1.250104e+01
3.378776188984481e-03	5.151048e+00	1.205975e+01
3.379217910274974e-03	5.168716e+00	1.107335e+01
3.379681994910966e-03	5.187280e+00	9.395622e+00
3.380544377069532e-03	5.221775e+00	4.858004e+00
3.381497086328340e-03	5.259883e+00	-1.577485e+00
3.382382310603694e-03	5.295292e+00	-8.158052e+00
3.382879596609683e-03	5.315184e+00	-1.148590e+01
3.383183586865898e-03	5.327343e+00	-1.288598e+01
3.383291113624584e-03	5.331645e+00	-1.307672e+01
3.383358813857916e-03	5.334352e+00	-1.309016e+01
3.383440710758749e-03	5.337628e+00	-1.309853e+01
3.383553446783039e-03	5.342138e+00	-1.310518e+01
3.383814402121462e-03	5.352576e+00	-1.311175e+01
3.499000000300006e-03	9.960000e+00	-1.311523e+01
3.500000000300006e-03	1.000000e+01	-1.311609e+01
3.500000000310006e-03	1.000000e+01	-1.311609e+01
3.500000000394863e-03	1.000000e+01	-1.311609e+01
3.500000000479720e-03	1.000000e+01	-1.311609e+01
3.500000000564577e-03	1.000000e+01	-1.311609e+01
3.500000000649435e-03	1.000000e+01	-1.311609e+01
3.500000000734292e-03	1.000000e+01	-1.311609e+01
3.500000000819149e-03	1.000000e+01	-1.311609e+01
3.500000000904006e-03	1.000000e+01	-1.311609e+01
3.500000150627239e-03	9.999994e+00	-1.311600e+01
3.500000300350472e-03	9.999988e+00	-1.311592e+01
3.500000450073705e-03	9.999982e+00	-1.311584e+01
3.500000599796938e-03	9.999976e+00	-1.311578e+01
3.500000749520171e-03	9.999970e+00	-1.311572e+01
3.500000899243405e-03	9.999964e+00	-1.311567e+01
3.500001048966638e-03	9.999958e+00	-1.311564e+01
3.500002097541269e-03	9.999916e+00	-1.311544e+01
3.500004194690532e-03	9.999832e+00	-1.311528e+01
3.500008388989059e-03	9.999664e+00	-1.311522e+01
3.500016777586111e-03	9.999329e+00	-1.311522e+01
3.861073740814780e-03	-4.442950e+00	-1.311522e+01
3.863073740814780e-03	-4.522950e+00	-1.311523e+01
3.865073740814780e-03	-4.602950e+00	-1.311523e+01
3.867073740814781e-03	-4.682950e+00	-1.311523e+01
3.869073740814781e-03	-4.762950e+00	-1.311522e+01
3.871073740814781e-03	-4.842950e+00	-1.311521e+01
3.873073740814781e-03	-4.922950e+00	-1.311519e+01
3.875073740814782e-03	-5.002950e+00	-1.311516e+01
3.877073740814782e-03	-5.082950e+00	-1.310354e+01
3.878073740814782e-03	-5.122950e+00	-1.307068e+01
3.878727603579372e-03	-5.149104e+00	-1.298330e+01
3.879106669270878e-03	-5.164267e+00	-1.274957e+01
3.879382606214361e-03	-5.175304e+00	-1.229252e+01
3.879647823665528e-03	-5.185913e+00	-1.149359e+01
3.880090909363822e-03	-5.203636e+00	-9.492362e+00
3.880693623203213e-03	-5.227745e+00	-5.735343e+00
3.881404167975460e-03	-5.256167e+00	1.334805e-02
3.882404167975460e-03	-5.296167e+00	9.135128e+00
3.882796142124203e-03	-5.311846e+00	1.249460e+01
3.882810137852988e-03	-5.312406e+00	1.257296e+01
3.882838129310556e-03	-5.313525e+00	1.263634e+01
3.882886645684668e-03	-5.315466e+00	1.267163e+01
3.882930071413256e-03	-5.317203e+00	1.267579e+01
3.882977082950435e-03	-5.319083e+00	1.267545e+01
3.999000000400006e-03	-9.960000e+00	1.267545e+01
4.000000000400007e-03	-1.000000e+01	1.267545e+01
4.000100000400007e-03	-9.996000e+00	1.267545e+01
4.000300000400006e-03	-9.988000e+00	1.267545e+01
4.053185714685728e-03	-7.872571e+00	1.267545e+01
4.106071428971449e-03	-5.757143e+00	1.267545e+01
4.158957143257170e-03	-3.641714e+00	1.267545e+01
4.211842857542891e-03	-1.526286e+00	1.267545e+01
4.264728571828613e-03	5.891428e-01	1.267545e+01
4.317614286114334e-03	2.704571e+00	1.267545e+01
4.370500000400055e-03	4.820000e+00	1.267546e+01
4.371357143257198e-03	4.854286e+00	1.267545e+01
4.372214286114342e-03	4.888572e+00	1.267545e+01
4.373071428971484e-03	4.922857e+00	1.267546e+01
4.373928571828627e-03	4.957143e+00	1.267546e+01
4.374785714685770e-03	4.991429e+00	1.267546e+01
4.375642857542913e-03	5.025714e+00	1.267546e+01
4.376500000400056e-03	5.060000e+00	1.267546e+01
4.377500000400056e-03	5.100000e+00	1.267133e+01
4.378347297571844e-03	5.133892e+00	1.250104e+01
4.378776189084482e-03	5.151048e+00	1.205975e+01
4.379217910374975e-03	5.168716e+00	1.107335e+01
4.379681995010968e-03	5.187280e+00	9.395622e+00
4.380544377169534e-03	5.221775e+00	4.858004e+00
4.381497086428341e-03	5.259883e+00	-1.577485e+00
4.382382310703696e-03	5.295292e+00	-8.158052e+00
4.382879596709684e-03	5.315184e+00	-1.148590e+01
4.383183586965899e-03	5.327343e+00	-1.288598e+01
4.383291113724585e-03	5.331645e+00	-1.307672e+01
4.383358813957918e-03	5.334352e+00	-1.309016e+01
4.383440710858751e-03	5.337628e+00	-1.309853e+01
4.383553446883040e-03	5.342138e+00	-1.310518e+01
4.383814402221463e-03	5.352576e+00	-1.311175e+01
4.499000000400009e-03	9.960000e+00	-1.311523e+01
4.500000000400009e-03	1.000000e+01	-1.311609e+01
4.500000000410008e-03	1.000000e+01	-1.311609e+01
4.500000000494866e-03	1.000000e+01	-1.311609e+01
4.500000000579723e-03	1.000000e+01	-1.311609e+01
4.500000000664580e-03	1.000000e+01	-1.311609e+01
4.500000000749437e-03	1.000000e+01	-1.311609e+01
4.500000000834294e-03	1.000000e+01	-1.311609e+01
4.500000000919151e-03	1.000000e+01	-1.311609e+01
4.500000001004008e-03	1.000000e+01	-1.311609e+01
4.500000150727241e-03	9.999994e+00	-1.311600e+01
4.500000300450474e-03	9.999988e+00	-1.311592e+01
4.500000450173707e-03	9.999982e+00	-1.311584e+01
4.500000599896941e-03	9.999976e+00	-1.311578e+01
4.500000749620174e-03	9.999970e+00	-1.311572e+01
4.500000899343407e-03	9.999964e+00	-1.311567e+01
4.500001049066640e-03	9.999958e+00	-1.311564e+01
4.500002097641271e-03	9.999916e+00	-1.311544e+01
4.500004194790535e-03	9.999832e+00	-1.311528e+01
4.500008389089061e-03	9.999664e+00	-1.311522e+01
4.500016777686113e-03	9.999329e+00	-1.311522e+01
4.827073740914778e-03	-3.082950e+00	-1.311522e+01
4.874073740914784e-03	-4.962950e+00	-1.311521e+01
4.877073740914784e-03	-5.082950e+00	-1.310354e+01
4.878073740914785e-03	-5.122950e+00	-1.307068e+01
4.878727603679375e-03	-5.149104e+00	-1.298330e+01
4.879106669376606e-03	-5.164267e+00	-1.274957e+01
4.879382606328128e-03	-5.175304e+00	-1.229252e+01
4.879647823783753e-03	-5.185913e+00	-1.149359e+01
4.880090909493603e-03	-5.203636e+00	-9.492362e+00
4.880693623329723e-03	-5.227745e+00	-5.735342e+00
4.881404168126121e-03	-5.256167e+00	1.334868e-02
4.882404168126121e-03	-5.296167e+00	9.135128e+00
4.882796142298973e-03	-5.311846e+00	1.249460e+01
4.882810138033703e-03	-5.312406e+00	1.257296e+01
4.882838129503163e-03	-5.313525e+00	1.263634e+01
4.882886645884463e-03	-5.315466e+00	1.267163e+01
4.882930071626615e-03	-5.317203e+00	1.267579e+01
4.882977083178314e-03	-5.319083e+00	1.267545e+01
4.999000000500009e-03	-9.960000e+00	1.267545e+01
5.000000000500009e-03	-1.000000e+01	1.267545e+01
5.000100000500009e-03	-9.996000e+00	1.267545e+01
5.000300000500009e-03	-9.988000e+00	1.267545e+01
5.053185714785731e-03	-7.872571e+00	1.267545e+01
5.106071429071451e-03	-5.757143e+00	1.267545e+01
5.158957143357173e-03	-3.641714e+00	1.267545e+01
5.211842857642894e-03	-1.526286e+00	1.267545e+01
5.264728571928615e-03	5.891428e-01	1.267545e+01
5.317614286214337e-03	2.704571e+00	1.267545e+01
5.370500000500058e-03	4.820000e+00	1.267546e+01
5.371357143357200e-03	4.854286e+00	1.267545e+01
5.372214286214344e-03	4.888572e+00	1.267545e+01
5.373071429071487e-03	4.922857e+00	1.267546e+01
5.373928571928629e-03	4.957143e+00	1.267546e+01
5.374785714785772e-03	4.991429e+00	1.267546e+01
5.375642857642916e-03	5.025714e+00	1.267546e+01
5.376500000500059e-03	5.060000e+00	1.267546e+01
5.377500000500059e-03	5.100000e+00	1.267133e+01
5.378347297671847e-03	5.133892e+00	1.250104e+01
5.378776189184485e-03	5.151048e+00	1.205975e+01
5.379217910474978e-03	5.168716e+00	1.107335e+01
5.379681995110970e-03	5.187280e+00	9.395622e+00
5.380544377269536e-03	5.221775e+00	4.858004e+00
5.381497086528345e-03	5.259883e+00	-1.577485e+00
5.382382310803700e-03	5.295292e+00	-8.158052e+00
5.382879596809689e-03	5.315184e+00	-1.148590e+01
5.383183587065903e-03	5.327343e+00	-1.288598e+01
5.383291113824590e-03	5.331645e+00	-1.307672e+01
5.383358814057921e-03	5.334352e+00	-1.309016e+01
5.383440710958754e-03	5.337628e+00	-1.309853e+01
5.383553446983044e-03	5.342138e+00	-1.310518e+01
5.383814402321467e-03	5.352576e+00	-1.311175e+01
5.499000000500011e-03	9.960000e+00	-1.311523e+01
5.500000000500011e-03	1.000000e+01	-1.311609e+01
5.500000000510011e-03	1.000000e+01	-1.311609e+01
5.500000000594868e-03	1.000000e+01	-1.311609e+01
5.500000000679725e-03	1.000000e+01	-1.311609e+01
5.500000000764583e-03	1.000000e+01	-1.311609e+01
5.500000000849439e-03	1.000000e+01	-1.311609e+01
5.500000000934297e-03	1.000000e+01	-1.311609e+01
5.500000001019153e-03	1.000000e+01	-1.311609e+01
5.500000001104011e-03	1.000000e+01	-1.311609e+01
5.500000150827244e-03	9.999994e+00	-1.311600e+01
5.500000300550477e-03	9.999988e+00	-1.311592e+01
5.500000450273709e-03	9.999982e+00	-1.311584e+01
5.500000599996943e-03	9.999976e+00	-1.311578e+01
5.500000749720176e-03	9.999970e+00	-1.311572e+01
5.500000899443409e-03	9.999964e+00	-1.311567e+01
5.500001049166642e-03	9.999958e+00	-1.311564e+01
5.500002097741274e-03	9.999916e+00	-1.311544e+01
5.500004194890537e-03	9.999832e+00	-1.311528e+01
5.500008389189064e-03	9.999664e+00	-1.311522e+01
